T3284 000:082.848   SEGGER J-Link V8.70 Log File
T3284 000:083.024   DLL Compiled: Sep 17 2025 12:10:41
T3284 000:083.033   Logging started @ 2026-01-08 12:07
T3284 000:083.040   Process: C:\Keil_v5\UV4\UV4.exe
T3284 000:083.053 - 83.047ms 
T3284 000:083.068 JLINK_SetWarnOutHandler(...)
T3284 000:083.075 - 0.009ms 
T3284 000:083.088 JLINK_OpenEx(...)
T3284 000:088.635   Firmware: J-Link ARM-OB STM32 compiled Aug 22 2012 19:52:04
T3284 000:089.665   Firmware: J-Link ARM-OB STM32 compiled Aug 22 2012 19:52:04
T3284 000:091.423   Hardware: V7.00
T3284 000:091.438   S/N: 20090928
T3284 000:091.447   OEM: SEGGER
T3284 000:091.456   Feature(s): RDI,FlashDL,FlashBP,JFlash,GDBFull
T3284 000:091.873   Bootloader: (FW returned invalid version)
T3284 000:092.576   TELNET listener socket opened on port 19021
T3284 000:092.837   WEBSRV WEBSRV_Init(): Starting webserver thread(s)
T3284 000:093.210   WEBSRV Webserver running on local port 19080
T3284 000:093.467   Looking for J-Link GUI Server exe at: C:\Keil_v5\ARM\Segger\JLinkGUIServer.exe
T3284 000:093.580   Looking for J-Link GUI Server exe at: C:\Program Files\SEGGER\JLink_V870\JLinkGUIServer.exe
T3284 000:093.641   Forking J-Link GUI Server: C:\Program Files\SEGGER\JLink_V870\JLinkGUIServer.exe
T3284 000:097.030   J-Link GUI Server info: "J-Link GUI server V8.70 "
T3284 000:097.652 - 14.557ms returns "O.K."
T3284 000:097.688 JLINK_GetEmuCaps()
T3284 000:097.701 - 0.009ms returns 0x88EA5833
T3284 000:097.719 JLINK_TIF_GetAvailable(...)
T3284 000:098.003 - 0.283ms 
T3284 000:098.026 JLINK_SetErrorOutHandler(...)
T3284 000:098.034 - 0.008ms 
T3284 000:098.066 JLINK_ExecCommand("ProjectFile = "D:\Desktop\testCode\CODE_SEP_HIEU_Version2\CODE_3_BANH_XOAY_2026\MDK-ARM\JLinkSettings.ini"", ...). 
T3284 000:128.372   Ref file found at: C:\Keil_v5\ARM\Segger\JLinkDevices.ref
T3284 000:128.497   REF file references invalid XML file: C:\Program Files\SEGGER\JLink_V870\JLinkDevices.xml
T3284 000:130.215 - 32.151ms returns 0x00
T3284 000:136.825 JLINK_ExecCommand("Device = STM32F407VETx", ...). 
T3284 000:143.228   Device "STM32F407VE" selected.
T3284 000:143.776 - 6.917ms returns 0x00
T3284 000:143.800 JLINK_ExecCommand("DisableConnectionTimeout", ...). 
T3284 000:143.817   ERROR: Unknown command
T3284 000:143.826 - 0.017ms returns 0x01
T3284 000:143.834 JLINK_GetHardwareVersion()
T3284 000:143.843 - 0.006ms returns 70000
T3284 000:143.850 JLINK_GetDLLVersion()
T3284 000:143.855 - 0.005ms returns 87000
T3284 000:143.862 JLINK_GetOEMString(...)
T3284 000:143.870 JLINK_GetFirmwareString(...)
T3284 000:143.876 - 0.006ms 
T3284 000:159.960 JLINK_GetDLLVersion()
T3284 000:159.994 - 0.034ms returns 87000
T3284 000:160.002 JLINK_GetCompileDateTime()
T3284 000:160.008 - 0.005ms 
T3284 000:165.411 JLINK_GetFirmwareString(...)
T3284 000:165.443 - 0.032ms 
T3284 000:170.147 JLINK_GetHardwareVersion()
T3284 000:170.178 - 0.030ms returns 70000
T3284 000:175.626 JLINK_GetSN()
T3284 000:175.660 - 0.033ms returns 20090928
T3284 000:180.833 JLINK_GetOEMString(...)
T3284 000:190.227 JLINK_TIF_Select(JLINKARM_TIF_SWD)
T3284 000:190.845 - 0.625ms returns 0x00
T3284 000:190.861 JLINK_HasError()
T3284 000:190.875 JLINK_SetSpeed(5000)
T3284 000:191.012 - 0.136ms 
T3284 000:191.026 JLINK_GetId()
T3284 000:197.799   InitTarget() start
T3284 000:197.836    J-Link Script File: Executing InitTarget()
T3284 000:203.573   SWD selected. Executing JTAG -> SWD switching sequence.
T3284 000:233.637   DAP initialized successfully.
T3284 000:270.969   InitTarget() end - Took 67.5ms
T3284 000:277.949   Found SW-DP with ID 0x2BA01477
T3284 000:282.622   Old FW that does not support reading DPIDR via DAP jobs
T3284 000:292.600   DPv0 detected
T3284 000:297.497   CoreSight SoC-400 or earlier
T3284 000:302.199   Scanning AP map to find all available APs
T3284 000:310.510   AP[1]: Stopped AP scan as end of AP map has been reached
T3284 000:315.129   AP[0]: AHB-AP (IDR: 0x24770011, ADDR: 0x00000000)
T3284 000:319.995   Iterating through AP map to find AHB-AP to use
T3284 000:371.285   AP[0]: Core found
T3284 000:377.245   AP[0]: AHB-AP ROM base: 0xE00FF000
T3284 000:385.013   CPUID register: 0x410FC241. Implementer code: 0x41 (ARM)
T3284 000:390.220   Found Cortex-M4 r0p1, Little endian.
T3284 000:390.733   -- Max. mem block: 0x00002C18
T3284 000:391.278   CPU_ReadMem(4 bytes @ 0xE000EDF0)
T3284 000:391.781   CPU_ReadMem(4 bytes @ 0xE0002000)
T3284 000:397.651   FPUnit: 6 code (BP) slots and 2 literal slots
T3284 000:397.694   CPU_ReadMem(4 bytes @ 0xE000EDFC)
T3284 000:398.290   CPU_WriteMem(4 bytes @ 0xE000EDFC)
T3284 000:398.764   CPU_ReadMem(4 bytes @ 0xE0001000)
T3284 000:399.286   CPU_WriteMem(4 bytes @ 0xE0001000)
T3284 000:399.760   CPU_ReadMem(4 bytes @ 0xE000ED88)
T3284 000:400.289   CPU_WriteMem(4 bytes @ 0xE000ED88)
T3284 000:400.759   CPU_ReadMem(4 bytes @ 0xE000ED88)
T3284 000:401.285   CPU_WriteMem(4 bytes @ 0xE000ED88)
T3284 000:406.441   CoreSight components:
T3284 000:411.995   ROMTbl[0] @ E00FF000
T3284 000:412.042   CPU_ReadMem(64 bytes @ 0xE00FF000)
T3284 000:413.195   CPU_ReadMem(32 bytes @ 0xE000EFE0)
T3284 000:418.850   [0][0]: E000E000 CID B105E00D PID 000BB00C SCS-M7
T3284 000:418.889   CPU_ReadMem(32 bytes @ 0xE0001FE0)
T3284 000:425.304   [0][1]: E0001000 CID B105E00D PID 003BB002 DWT
T3284 000:425.353   CPU_ReadMem(32 bytes @ 0xE0002FE0)
T3284 000:431.861   [0][2]: E0002000 CID B105E00D PID 002BB003 FPB
T3284 000:431.906   CPU_ReadMem(32 bytes @ 0xE0000FE0)
T3284 000:437.749   [0][3]: E0000000 CID B105E00D PID 003BB001 ITM
T3284 000:437.793   CPU_ReadMem(32 bytes @ 0xE0040FE0)
T3284 000:444.878   [0][4]: E0040000 CID B105900D PID 000BB9A1 TPIU
T3284 000:444.924   CPU_ReadMem(32 bytes @ 0xE0041FE0)
T3284 000:451.105   [0][5]: E0041000 CID B105900D PID 000BB925 ETM
T3284 000:451.768 - 260.740ms returns 0x2BA01477
T3284 000:451.795 JLINK_GetDLLVersion()
T3284 000:451.802 - 0.006ms returns 87000
T3284 000:451.809 JLINK_CORE_GetFound()
T3284 000:451.816 - 0.006ms returns 0xE0000FF
T3284 000:451.824 JLINK_GetDebugInfo(0x100 = JLINKARM_ROM_TABLE_ADDR_INDEX)
T3284 000:451.831   Value=0xE00FF000
T3284 000:451.840 - 0.016ms returns 0
T3284 000:457.346 JLINK_GetDebugInfo(0x100 = JLINKARM_ROM_TABLE_ADDR_INDEX)
T3284 000:457.388   Value=0xE00FF000
T3284 000:457.401 - 0.055ms returns 0
T3284 000:457.412 JLINK_GetDebugInfo(0x101 = JLINKARM_DEBUG_INFO_ETM_ADDR_INDEX)
T3284 000:457.419   Value=0xE0041000
T3284 000:457.430 - 0.018ms returns 0
T3284 000:457.440 JLINK_ReadMemEx(0xE0041FD0, 0x20 Bytes, Flags = 0x02000004)
T3284 000:457.485   CPU_ReadMem(32 bytes @ 0xE0041FD0)
T3284 000:458.353   Data:  04 00 00 00 00 00 00 00 00 00 00 00 00 00 00 00 ...
T3284 000:458.380 - 0.940ms returns 32 (0x20)
T3284 000:458.394 JLINK_GetDebugInfo(0x102 = JLINKARM_DEBUG_INFO_MTB_ADDR_INDEX)
T3284 000:458.400   Value=0x00000000
T3284 000:458.409 - 0.016ms returns 0
T3284 000:458.417 JLINK_GetDebugInfo(0x103 = JLINKARM_DEBUG_INFO_TPIU_ADDR_INDEX)
T3284 000:458.423   Value=0xE0040000
T3284 000:458.432 - 0.015ms returns 0
T3284 000:458.439 JLINK_GetDebugInfo(0x104 = JLINKARM_DEBUG_INFO_ITM_ADDR_INDEX)
T3284 000:458.445   Value=0xE0000000
T3284 000:458.454 - 0.015ms returns 0
T3284 000:458.461 JLINK_GetDebugInfo(0x105 = JLINKARM_DEBUG_INFO_DWT_ADDR_INDEX)
T3284 000:458.467   Value=0xE0001000
T3284 000:458.475 - 0.014ms returns 0
T3284 000:458.483 JLINK_GetDebugInfo(0x106 = JLINKARM_DEBUG_INFO_FPB_ADDR_INDEX)
T3284 000:458.488   Value=0xE0002000
T3284 000:458.497 - 0.014ms returns 0
T3284 000:458.504 JLINK_GetDebugInfo(0x107 = JLINKARM_DEBUG_INFO_NVIC_ADDR_INDEX)
T3284 000:458.510   Value=0xE000E000
T3284 000:458.518 - 0.014ms returns 0
T3284 000:458.525 JLINK_GetDebugInfo(0x10C = JLINKARM_DEBUG_INFO_DBG_ADDR_INDEX)
T3284 000:458.531   Value=0xE000EDF0
T3284 000:458.540 - 0.014ms returns 0
T3284 000:458.547 JLINK_GetDebugInfo(0x01 = Unknown)
T3284 000:458.553   Value=0x00000001
T3284 000:458.562 - 0.015ms returns 0
T3284 000:458.569 JLINK_ReadMemU32(0xE000ED00, 0x1 Items)
T3284 000:458.585   CPU_ReadMem(4 bytes @ 0xE000ED00)
T3284 000:459.047   Data:  41 C2 0F 41
T3284 000:459.065   Debug reg: CPUID
T3284 000:459.075 - 0.505ms returns 1 (0x1)
T3284 000:459.085 JLINK_GetDebugInfo(0x10F = JLINKARM_DEBUG_INFO_HAS_CORTEX_M_SECURITY_EXT_INDEX)
T3284 000:459.092   Value=0x00000000
T3284 000:459.100 - 0.015ms returns 0
T3284 000:459.109 JLINK_HasError()
T3284 000:459.120 JLINK_SetResetType(JLINKARM_CM3_RESET_TYPE_NORMAL)
T3284 000:459.129 - 0.008ms returns JLINKARM_CM3_RESET_TYPE_NORMAL
T3284 000:459.139 JLINK_Reset()
T3284 000:459.153   JLINK_GetResetTypeDesc
T3284 000:459.160   - 0.006ms 
T3284 000:464.707   Reset type: NORMAL (https://wiki.segger.com/J-Link_Reset_Strategies)
T3284 000:464.749   CPU is running
T3284 000:464.764   CPU_WriteMem(4 bytes @ 0xE000EDF0)
T3284 000:465.434   CPU is running
T3284 000:465.452   CPU_WriteMem(4 bytes @ 0xE000EDFC)
T3284 000:470.876   Reset: Halt core after reset via DEMCR.VC_CORERESET.
T3284 000:478.023   Reset: Reset device via AIRCR.SYSRESETREQ.
T3284 000:478.061   CPU is running
T3284 000:478.077   CPU_WriteMem(4 bytes @ 0xE000ED0C)
T3284 000:533.058   CPU_ReadMem(4 bytes @ 0xE000EDF0)
T3284 000:533.680   CPU_ReadMem(4 bytes @ 0xE000EDF0)
T3284 000:538.402   CPU_WriteMem(4 bytes @ 0xE000EDFC)
T3284 000:545.113   CPU_ReadMem(4 bytes @ 0xE000EDF0)
T3284 000:549.574   CPU_WriteMem(4 bytes @ 0xE0002000)
T3284 000:550.318   CPU_ReadMem(4 bytes @ 0xE000EDFC)
T3284 000:551.124   CPU_ReadMem(4 bytes @ 0xE0001000)
T3284 000:551.892 - 92.751ms 
T3284 000:551.938 JLINK_Halt()
T3284 000:551.947 - 0.009ms returns 0x00
T3284 000:551.958 JLINK_ReadMemU32(0xE000EDF0, 0x1 Items)
T3284 000:551.979   CPU_ReadMem(4 bytes @ 0xE000EDF0)
T3284 000:552.639   Data:  03 00 03 00
T3284 000:552.665   Debug reg: DHCSR
T3284 000:552.679 - 0.721ms returns 1 (0x1)
T3284 000:552.706 JLINK_WriteU32(0xE000EDF0, 0xA05F0003)
T3284 000:552.717   Debug reg: DHCSR
T3284 000:553.091   CPU_WriteMem(4 bytes @ 0xE000EDF0)
T3284 000:553.840 - 1.132ms returns 0 (0x00000000)
T3284 000:553.885 JLINK_WriteU32(0xE000EDFC, 0x01000000)
T3284 000:553.894   Debug reg: DEMCR
T3284 000:553.916   CPU_WriteMem(4 bytes @ 0xE000EDFC)
T3284 000:554.640 - 0.753ms returns 0 (0x00000000)
T3284 000:579.474 JLINK_GetHWStatus(...)
T3284 000:579.745 - 0.276ms returns 0
T3284 000:598.746 JLINK_GetNumBPUnits(Type = 0xFFFFFF00)
T3284 000:598.781 - 0.035ms returns 0x06
T3284 000:598.789 JLINK_GetNumBPUnits(Type = 0xF0)
T3284 000:598.796 - 0.006ms returns 0x2000
T3284 000:598.803 JLINK_GetNumWPUnits()
T3284 000:598.809 - 0.006ms returns 4
T3284 000:616.930 JLINK_GetSpeed()
T3284 000:616.964 - 0.033ms returns 4000
T3284 000:628.455 JLINK_ReadMemU32(0xE000E004, 0x1 Items)
T3284 000:628.509   CPU_ReadMem(4 bytes @ 0xE000E004)
T3284 000:629.284   Data:  02 00 00 00
T3284 000:629.319 - 0.864ms returns 1 (0x1)
T3284 000:629.334 JLINK_ReadMemU32(0xE000E004, 0x1 Items)
T3284 000:629.350   CPU_ReadMem(4 bytes @ 0xE000E004)
T3284 000:629.975   Data:  02 00 00 00
T3284 000:629.994 - 0.660ms returns 1 (0x1)
T3284 000:630.005 JLINK_WriteMemEx(0xE0001000, 0x0000001C Bytes, Flags = 0x02000004)
T3284 000:630.012   Data:  01 00 00 00 00 00 00 00 00 00 00 00 00 00 00 00 ...
T3284 000:630.031   CPU_WriteMem(28 bytes @ 0xE0001000)
T3284 000:630.855 - 0.849ms returns 0x1C
T3284 000:630.885 JLINK_Halt()
T3284 000:630.894 - 0.008ms returns 0x00
T3284 000:630.905 JLINK_IsHalted()
T3284 000:630.914 - 0.009ms returns TRUE
T3284 000:635.207 JLINK_WriteMem(0x20000000, 0x188 Bytes, ...)
T3284 000:635.223   Data:  00 BE 0A E0 0D 78 2D 06 68 40 08 24 40 00 00 D3 ...
T3284 000:635.531   CPU_WriteMem(392 bytes @ 0x20000000)
T3284 000:640.740 - 5.532ms returns 0x188
T3284 000:640.857 JLINK_HasError()
T3284 000:640.870 JLINK_WriteReg(R0, 0x08000000)
T3284 000:640.882 - 0.012ms returns 0
T3284 000:640.889 JLINK_WriteReg(R1, 0x007A1200)
T3284 000:640.895 - 0.006ms returns 0
T3284 000:640.903 JLINK_WriteReg(R2, 0x00000001)
T3284 000:640.909 - 0.006ms returns 0
T3284 000:640.916 JLINK_WriteReg(R3, 0x00000000)
T3284 000:640.922 - 0.006ms returns 0
T3284 000:640.934 JLINK_WriteReg(R4, 0x00000000)
T3284 000:640.944 - 0.009ms returns 0
T3284 000:640.951 JLINK_WriteReg(R5, 0x00000000)
T3284 000:640.957 - 0.006ms returns 0
T3284 000:640.964 JLINK_WriteReg(R6, 0x00000000)
T3284 000:640.970 - 0.006ms returns 0
T3284 000:640.977 JLINK_WriteReg(R7, 0x00000000)
T3284 000:640.983 - 0.006ms returns 0
T3284 000:640.999 JLINK_WriteReg(R8, 0x00000000)
T3284 000:641.005 - 0.015ms returns 0
T3284 000:641.012 JLINK_WriteReg(R9, 0x20000184)
T3284 000:641.019 - 0.006ms returns 0
T3284 000:641.026 JLINK_WriteReg(R10, 0x00000000)
T3284 000:641.032 - 0.006ms returns 0
T3284 000:641.039 JLINK_WriteReg(R11, 0x00000000)
T3284 000:641.045 - 0.006ms returns 0
T3284 000:641.052 JLINK_WriteReg(R12, 0x00000000)
T3284 000:641.058 - 0.006ms returns 0
T3284 000:641.065 JLINK_WriteReg(R13 (SP), 0x20001000)
T3284 000:641.073 - 0.007ms returns 0
T3284 000:641.080 JLINK_WriteReg(R14, 0x20000001)
T3284 000:641.086 - 0.006ms returns 0
T3284 000:641.093 JLINK_WriteReg(R15 (PC), 0x2000005E)
T3284 000:641.100 - 0.006ms returns 0
T3284 000:641.107 JLINK_WriteReg(XPSR, 0x01000000)
T3284 000:641.113 - 0.006ms returns 0
T3284 000:641.120 JLINK_WriteReg(MSP, 0x20001000)
T3284 000:641.126 - 0.006ms returns 0
T3284 000:641.133 JLINK_WriteReg(PSP, 0x20001000)
T3284 000:641.139 - 0.006ms returns 0
T3284 000:641.146 JLINK_WriteReg(CFBP, 0x00000000)
T3284 000:641.152 - 0.006ms returns 0
T3284 000:641.160 JLINK_SetBPEx(Addr = 0x20000000, Type = 0xFFFFFFF2)
T3284 000:641.176   CPU_ReadMem(2 bytes @ 0x20000000)
T3284 000:641.797 - 0.635ms returns 0x00000001
T3284 000:641.828 JLINK_Go()
T3284 000:641.847   CPU_WriteMem(2 bytes @ 0x20000000)
T3284 000:642.563   CPU_ReadMem(4 bytes @ 0xE0001000)
T3284 000:643.240   CPU_WriteMem(4 bytes @ 0xE0002008)
T3284 000:643.260   CPU_WriteMem(4 bytes @ 0xE000200C)
T3284 000:643.269   CPU_WriteMem(4 bytes @ 0xE0002010)
T3284 000:643.278   CPU_WriteMem(4 bytes @ 0xE0002014)
T3284 000:643.287   CPU_WriteMem(4 bytes @ 0xE0002018)
T3284 000:643.296   CPU_WriteMem(4 bytes @ 0xE000201C)
T3284 000:646.060   CPU_WriteMem(4 bytes @ 0xE0001004)
T3284 000:655.741   Memory map 'after startup completion point' is active
T3284 000:655.773 - 13.944ms 
T3284 000:655.786 JLINK_IsHalted()
T3284 000:659.537   CPU_ReadMem(2 bytes @ 0x20000000)
T3284 000:660.387 - 4.600ms returns TRUE
T3284 000:660.432 JLINK_ReadReg(R15 (PC))
T3284 000:660.449 - 0.017ms returns 0x20000000
T3284 000:660.457 JLINK_ClrBPEx(BPHandle = 0x00000001)
T3284 000:660.465 - 0.007ms returns 0x00
T3284 000:660.600 JLINK_ReadReg(R0)
T3284 000:660.619 - 0.019ms returns 0x00000000
T3284 000:661.114 JLINK_HasError()
T3284 000:661.128 JLINK_WriteReg(R0, 0x08000000)
T3284 000:661.137 - 0.008ms returns 0
T3284 000:661.144 JLINK_WriteReg(R1, 0x00004000)
T3284 000:661.150 - 0.006ms returns 0
T3284 000:661.157 JLINK_WriteReg(R2, 0x000000FF)
T3284 000:661.163 - 0.006ms returns 0
T3284 000:661.170 JLINK_WriteReg(R3, 0x00000000)
T3284 000:661.177 - 0.006ms returns 0
T3284 000:661.184 JLINK_WriteReg(R4, 0x00000000)
T3284 000:661.190 - 0.006ms returns 0
T3284 000:661.197 JLINK_WriteReg(R5, 0x00000000)
T3284 000:661.203 - 0.006ms returns 0
T3284 000:661.210 JLINK_WriteReg(R6, 0x00000000)
T3284 000:661.216 - 0.006ms returns 0
T3284 000:661.223 JLINK_WriteReg(R7, 0x00000000)
T3284 000:661.229 - 0.006ms returns 0
T3284 000:661.236 JLINK_WriteReg(R8, 0x00000000)
T3284 000:661.242 - 0.006ms returns 0
T3284 000:661.249 JLINK_WriteReg(R9, 0x20000184)
T3284 000:661.256 - 0.006ms returns 0
T3284 000:661.263 JLINK_WriteReg(R10, 0x00000000)
T3284 000:661.269 - 0.006ms returns 0
T3284 000:661.276 JLINK_WriteReg(R11, 0x00000000)
T3284 000:661.283 - 0.006ms returns 0
T3284 000:661.290 JLINK_WriteReg(R12, 0x00000000)
T3284 000:661.296 - 0.006ms returns 0
T3284 000:661.303 JLINK_WriteReg(R13 (SP), 0x20001000)
T3284 000:661.309 - 0.006ms returns 0
T3284 000:661.317 JLINK_WriteReg(R14, 0x20000001)
T3284 000:661.323 - 0.006ms returns 0
T3284 000:661.330 JLINK_WriteReg(R15 (PC), 0x20000020)
T3284 000:661.391 - 0.061ms returns 0
T3284 000:661.402 JLINK_WriteReg(XPSR, 0x01000000)
T3284 000:661.408 - 0.006ms returns 0
T3284 000:661.415 JLINK_WriteReg(MSP, 0x20001000)
T3284 000:661.421 - 0.006ms returns 0
T3284 000:661.428 JLINK_WriteReg(PSP, 0x20001000)
T3284 000:661.434 - 0.006ms returns 0
T3284 000:661.441 JLINK_WriteReg(CFBP, 0x00000000)
T3284 000:661.448 - 0.006ms returns 0
T3284 000:661.455 JLINK_SetBPEx(Addr = 0x20000000, Type = 0xFFFFFFF2)
T3284 000:661.463 - 0.008ms returns 0x00000002
T3284 000:661.470 JLINK_Go()
T3284 000:661.488   CPU_ReadMem(4 bytes @ 0xE0001000)
T3284 000:665.797 - 4.325ms 
T3284 000:665.837 JLINK_IsHalted()
T3284 000:669.743   CPU_ReadMem(2 bytes @ 0x20000000)
T3284 000:670.345 - 4.506ms returns TRUE
T3284 000:670.383 JLINK_ReadReg(R15 (PC))
T3284 000:670.395 - 0.011ms returns 0x20000000
T3284 000:670.402 JLINK_ClrBPEx(BPHandle = 0x00000002)
T3284 000:670.410 - 0.007ms returns 0x00
T3284 000:670.417 JLINK_ReadReg(R0)
T3284 000:670.424 - 0.006ms returns 0x00000001
T3284 000:670.432 JLINK_HasError()
T3284 000:670.440 JLINK_WriteReg(R0, 0x08000000)
T3284 000:670.447 - 0.007ms returns 0
T3284 000:670.455 JLINK_WriteReg(R1, 0x00004000)
T3284 000:670.461 - 0.006ms returns 0
T3284 000:670.468 JLINK_WriteReg(R2, 0x000000FF)
T3284 000:670.474 - 0.006ms returns 0
T3284 000:670.481 JLINK_WriteReg(R3, 0x00000000)
T3284 000:670.487 - 0.006ms returns 0
T3284 000:670.494 JLINK_WriteReg(R4, 0x00000000)
T3284 000:670.500 - 0.006ms returns 0
T3284 000:670.507 JLINK_WriteReg(R5, 0x00000000)
T3284 000:670.514 - 0.006ms returns 0
T3284 000:670.521 JLINK_WriteReg(R6, 0x00000000)
T3284 000:670.527 - 0.006ms returns 0
T3284 000:670.534 JLINK_WriteReg(R7, 0x00000000)
T3284 000:670.540 - 0.006ms returns 0
T3284 000:670.547 JLINK_WriteReg(R8, 0x00000000)
T3284 000:670.553 - 0.006ms returns 0
T3284 000:670.560 JLINK_WriteReg(R9, 0x20000184)
T3284 000:670.566 - 0.006ms returns 0
T3284 000:670.573 JLINK_WriteReg(R10, 0x00000000)
T3284 000:670.579 - 0.006ms returns 0
T3284 000:670.586 JLINK_WriteReg(R11, 0x00000000)
T3284 000:670.592 - 0.006ms returns 0
T3284 000:670.599 JLINK_WriteReg(R12, 0x00000000)
T3284 000:670.606 - 0.006ms returns 0
T3284 000:670.613 JLINK_WriteReg(R13 (SP), 0x20001000)
T3284 000:670.620 - 0.007ms returns 0
T3284 000:670.627 JLINK_WriteReg(R14, 0x20000001)
T3284 000:670.633 - 0.006ms returns 0
T3284 000:670.640 JLINK_WriteReg(R15 (PC), 0x200000C6)
T3284 000:670.646 - 0.006ms returns 0
T3284 000:670.653 JLINK_WriteReg(XPSR, 0x01000000)
T3284 000:670.659 - 0.006ms returns 0
T3284 000:670.667 JLINK_WriteReg(MSP, 0x20001000)
T3284 000:670.673 - 0.006ms returns 0
T3284 000:670.680 JLINK_WriteReg(PSP, 0x20001000)
T3284 000:670.686 - 0.006ms returns 0
T3284 000:670.693 JLINK_WriteReg(CFBP, 0x00000000)
T3284 000:670.699 - 0.006ms returns 0
T3284 000:670.707 JLINK_SetBPEx(Addr = 0x20000000, Type = 0xFFFFFFF2)
T3284 000:670.715 - 0.008ms returns 0x00000003
T3284 000:670.722 JLINK_Go()
T3284 000:670.740   CPU_ReadMem(4 bytes @ 0xE0001000)
T3284 000:674.937 - 4.210ms 
T3284 000:675.025 JLINK_IsHalted()
T3284 000:675.748 - 0.724ms returns FALSE
T3284 000:675.778 JLINK_HasError()
T3284 000:711.635 JLINK_IsHalted()
T3284 000:712.230 - 0.594ms returns FALSE
T3284 000:712.258 JLINK_HasError()
T3284 000:713.650 JLINK_IsHalted()
T3284 000:714.104 - 0.453ms returns FALSE
T3284 000:714.127 JLINK_HasError()
T3284 000:715.703 JLINK_IsHalted()
T3284 000:716.285 - 0.581ms returns FALSE
T3284 000:716.312 JLINK_HasError()
T3284 000:717.719 JLINK_IsHalted()
T3284 000:718.240 - 0.521ms returns FALSE
T3284 000:718.260 JLINK_HasError()
T3284 000:720.191 JLINK_IsHalted()
T3284 000:720.642 - 0.449ms returns FALSE
T3284 000:720.666 JLINK_HasError()
T3284 000:722.316 JLINK_IsHalted()
T3284 000:722.813 - 0.496ms returns FALSE
T3284 000:722.834 JLINK_HasError()
T3284 000:724.171 JLINK_IsHalted()
T3284 000:724.662 - 0.490ms returns FALSE
T3284 000:724.685 JLINK_HasError()
T3284 000:726.302 JLINK_IsHalted()
T3284 000:726.880 - 0.578ms returns FALSE
T3284 000:726.904 JLINK_HasError()
T3284 000:728.818 JLINK_IsHalted()
T3284 000:729.491 - 0.673ms returns FALSE
T3284 000:729.510 JLINK_HasError()
T3284 000:730.936 JLINK_IsHalted()
T3284 000:731.577 - 0.640ms returns FALSE
T3284 000:731.596 JLINK_HasError()
T3284 000:733.763 JLINK_IsHalted()
T3284 000:734.482 - 0.718ms returns FALSE
T3284 000:734.500 JLINK_HasError()
T3284 000:735.965 JLINK_IsHalted()
T3284 000:736.617 - 0.651ms returns FALSE
T3284 000:736.641 JLINK_HasError()
T3284 000:738.936 JLINK_IsHalted()
T3284 000:739.421 - 0.484ms returns FALSE
T3284 000:739.440 JLINK_HasError()
T3284 000:741.260 JLINK_IsHalted()
T3284 000:741.954 - 0.693ms returns FALSE
T3284 000:741.976 JLINK_HasError()
T3284 000:744.127 JLINK_IsHalted()
T3284 000:745.006 - 0.878ms returns FALSE
T3284 000:745.028 JLINK_HasError()
T3284 000:747.163 JLINK_IsHalted()
T3284 000:747.792 - 0.628ms returns FALSE
T3284 000:747.812 JLINK_HasError()
T3284 000:749.893 JLINK_IsHalted()
T3284 000:750.565 - 0.671ms returns FALSE
T3284 000:750.586 JLINK_HasError()
T3284 000:751.869 JLINK_IsHalted()
T3284 000:752.506 - 0.637ms returns FALSE
T3284 000:752.525 JLINK_HasError()
T3284 000:753.801 JLINK_IsHalted()
T3284 000:754.477 - 0.675ms returns FALSE
T3284 000:754.496 JLINK_HasError()
T3284 000:755.957 JLINK_IsHalted()
T3284 000:756.406 - 0.448ms returns FALSE
T3284 000:756.426 JLINK_HasError()
T3284 000:757.944 JLINK_IsHalted()
T3284 000:758.413 - 0.468ms returns FALSE
T3284 000:758.442 JLINK_HasError()
T3284 000:760.648 JLINK_IsHalted()
T3284 000:761.384 - 0.735ms returns FALSE
T3284 000:761.405 JLINK_HasError()
T3284 000:762.590 JLINK_IsHalted()
T3284 000:763.185 - 0.594ms returns FALSE
T3284 000:763.210 JLINK_HasError()
T3284 000:764.652 JLINK_IsHalted()
T3284 000:765.330 - 0.677ms returns FALSE
T3284 000:765.348 JLINK_HasError()
T3284 000:766.654 JLINK_IsHalted()
T3284 000:767.383 - 0.728ms returns FALSE
T3284 000:767.402 JLINK_HasError()
T3284 000:768.672 JLINK_IsHalted()
T3284 000:769.349 - 0.676ms returns FALSE
T3284 000:769.367 JLINK_HasError()
T3284 000:770.857 JLINK_IsHalted()
T3284 000:771.524 - 0.666ms returns FALSE
T3284 000:771.542 JLINK_HasError()
T3284 000:772.840 JLINK_IsHalted()
T3284 000:773.386 - 0.545ms returns FALSE
T3284 000:773.406 JLINK_HasError()
T3284 000:774.772 JLINK_IsHalted()
T3284 000:775.615 - 0.842ms returns FALSE
T3284 000:775.637 JLINK_HasError()
T3284 000:777.129 JLINK_IsHalted()
T3284 000:777.866 - 0.734ms returns FALSE
T3284 000:777.916 JLINK_HasError()
T3284 000:779.092 JLINK_IsHalted()
T3284 000:779.673 - 0.580ms returns FALSE
T3284 000:779.692 JLINK_HasError()
T3284 000:781.401 JLINK_IsHalted()
T3284 000:782.130 - 0.727ms returns FALSE
T3284 000:782.155 JLINK_HasError()
T3284 000:783.402 JLINK_IsHalted()
T3284 000:784.096 - 0.693ms returns FALSE
T3284 000:784.124 JLINK_HasError()
T3284 000:785.306 JLINK_IsHalted()
T3284 000:785.992 - 0.684ms returns FALSE
T3284 000:786.016 JLINK_HasError()
T3284 000:787.391 JLINK_IsHalted()
T3284 000:788.191 - 0.797ms returns FALSE
T3284 000:788.233 JLINK_HasError()
T3284 000:790.018 JLINK_IsHalted()
T3284 000:790.759 - 0.740ms returns FALSE
T3284 000:790.791 JLINK_HasError()
T3284 000:795.152 JLINK_IsHalted()
T3284 000:795.838 - 0.685ms returns FALSE
T3284 000:795.857 JLINK_HasError()
T3284 000:797.033 JLINK_IsHalted()
T3284 000:797.697 - 0.663ms returns FALSE
T3284 000:797.715 JLINK_HasError()
T3284 000:799.858 JLINK_IsHalted()
T3284 000:800.470 - 0.612ms returns FALSE
T3284 000:800.488 JLINK_HasError()
T3284 000:801.772 JLINK_IsHalted()
T3284 000:802.386 - 0.613ms returns FALSE
T3284 000:802.404 JLINK_HasError()
T3284 000:803.811 JLINK_IsHalted()
T3284 000:804.511 - 0.699ms returns FALSE
T3284 000:804.530 JLINK_HasError()
T3284 000:805.836 JLINK_IsHalted()
T3284 000:806.353 - 0.517ms returns FALSE
T3284 000:806.372 JLINK_HasError()
T3284 000:807.860 JLINK_IsHalted()
T3284 000:808.519 - 0.658ms returns FALSE
T3284 000:808.537 JLINK_HasError()
T3284 000:810.439 JLINK_IsHalted()
T3284 000:811.083 - 0.644ms returns FALSE
T3284 000:811.101 JLINK_HasError()
T3284 000:812.397 JLINK_IsHalted()
T3284 000:813.428 - 1.030ms returns FALSE
T3284 000:813.447 JLINK_HasError()
T3284 000:815.483 JLINK_IsHalted()
T3284 000:816.129 - 0.645ms returns FALSE
T3284 000:816.147 JLINK_HasError()
T3284 000:817.409 JLINK_IsHalted()
T3284 000:818.198 - 0.788ms returns FALSE
T3284 000:818.219 JLINK_HasError()
T3284 000:819.958 JLINK_IsHalted()
T3284 000:820.493 - 0.534ms returns FALSE
T3284 000:820.516 JLINK_HasError()
T3284 000:822.128 JLINK_IsHalted()
T3284 000:822.920 - 0.791ms returns FALSE
T3284 000:822.954 JLINK_HasError()
T3284 000:825.215 JLINK_IsHalted()
T3284 000:826.019 - 0.803ms returns FALSE
T3284 000:826.062 JLINK_HasError()
T3284 000:828.839 JLINK_IsHalted()
T3284 000:829.532 - 0.692ms returns FALSE
T3284 000:829.570 JLINK_HasError()
T3284 000:830.904 JLINK_IsHalted()
T3284 000:831.618 - 0.712ms returns FALSE
T3284 000:831.646 JLINK_HasError()
T3284 000:832.874 JLINK_IsHalted()
T3284 000:833.641 - 0.766ms returns FALSE
T3284 000:833.668 JLINK_HasError()
T3284 000:834.938 JLINK_IsHalted()
T3284 000:835.638 - 0.699ms returns FALSE
T3284 000:835.663 JLINK_HasError()
T3284 000:836.905 JLINK_IsHalted()
T3284 000:837.598 - 0.692ms returns FALSE
T3284 000:837.624 JLINK_HasError()
T3284 000:845.623 JLINK_IsHalted()
T3284 000:846.417 - 0.793ms returns FALSE
T3284 000:846.444 JLINK_HasError()
T3284 000:847.619 JLINK_IsHalted()
T3284 000:848.290 - 0.669ms returns FALSE
T3284 000:848.314 JLINK_HasError()
T3284 000:850.264 JLINK_IsHalted()
T3284 000:850.979 - 0.713ms returns FALSE
T3284 000:851.005 JLINK_HasError()
T3284 000:852.190 JLINK_IsHalted()
T3284 000:852.872 - 0.680ms returns FALSE
T3284 000:852.915 JLINK_HasError()
T3284 000:854.300 JLINK_IsHalted()
T3284 000:855.024 - 0.723ms returns FALSE
T3284 000:855.051 JLINK_HasError()
T3284 000:856.273 JLINK_IsHalted()
T3284 000:856.869 - 0.595ms returns FALSE
T3284 000:856.897 JLINK_HasError()
T3284 000:858.849 JLINK_IsHalted()
T3284 000:859.476 - 0.627ms returns FALSE
T3284 000:859.502 JLINK_HasError()
T3284 000:860.949 JLINK_IsHalted()
T3284 000:861.661 - 0.712ms returns FALSE
T3284 000:861.687 JLINK_HasError()
T3284 000:862.938 JLINK_IsHalted()
T3284 000:863.629 - 0.690ms returns FALSE
T3284 000:863.655 JLINK_HasError()
T3284 000:864.940 JLINK_IsHalted()
T3284 000:865.640 - 0.699ms returns FALSE
T3284 000:865.666 JLINK_HasError()
T3284 000:866.969 JLINK_IsHalted()
T3284 000:867.620 - 0.649ms returns FALSE
T3284 000:867.649 JLINK_HasError()
T3284 000:872.708 JLINK_IsHalted()
T3284 000:873.450 - 0.644ms returns FALSE
T3284 000:873.519 JLINK_HasError()
T3284 000:875.806 JLINK_IsHalted()
T3284 000:876.593 - 0.787ms returns FALSE
T3284 000:876.635 JLINK_HasError()
T3284 000:878.781 JLINK_IsHalted()
T3284 000:879.472 - 0.690ms returns FALSE
T3284 000:879.497 JLINK_HasError()
T3284 000:881.178 JLINK_IsHalted()
T3284 000:881.878 - 0.698ms returns FALSE
T3284 000:881.902 JLINK_HasError()
T3284 000:883.148 JLINK_IsHalted()
T3284 000:883.757 - 0.608ms returns FALSE
T3284 000:883.784 JLINK_HasError()
T3284 000:888.869 JLINK_IsHalted()
T3284 000:889.493 - 0.622ms returns FALSE
T3284 000:889.518 JLINK_HasError()
T3284 000:890.969 JLINK_IsHalted()
T3284 000:891.678 - 0.708ms returns FALSE
T3284 000:891.712 JLINK_HasError()
T3284 000:892.995 JLINK_IsHalted()
T3284 000:893.643 - 0.646ms returns FALSE
T3284 000:893.670 JLINK_HasError()
T3284 000:895.015 JLINK_IsHalted()
T3284 000:895.805 - 0.789ms returns FALSE
T3284 000:895.848 JLINK_HasError()
T3284 000:897.997 JLINK_IsHalted()
T3284 000:898.629 - 0.631ms returns FALSE
T3284 000:898.666 JLINK_HasError()
T3284 000:902.661 JLINK_IsHalted()
T3284 000:903.468 - 0.806ms returns FALSE
T3284 000:903.511 JLINK_HasError()
T3284 000:905.592 JLINK_IsHalted()
T3284 000:906.303 - 0.710ms returns FALSE
T3284 000:906.334 JLINK_HasError()
T3284 000:907.565 JLINK_IsHalted()
T3284 000:908.274 - 0.709ms returns FALSE
T3284 000:908.306 JLINK_HasError()
T3284 000:910.172 JLINK_IsHalted()
T3284 000:910.926 - 0.752ms returns FALSE
T3284 000:910.952 JLINK_HasError()
T3284 000:912.185 JLINK_IsHalted()
T3284 000:912.822 - 0.636ms returns FALSE
T3284 000:912.846 JLINK_HasError()
T3284 000:914.155 JLINK_IsHalted()
T3284 000:914.886 - 0.729ms returns FALSE
T3284 000:914.928 JLINK_HasError()
T3284 000:916.251 JLINK_IsHalted()
T3284 000:916.995 - 0.742ms returns FALSE
T3284 000:917.037 JLINK_HasError()
T3284 000:918.805 JLINK_IsHalted()
T3284 000:919.548 - 0.741ms returns FALSE
T3284 000:919.590 JLINK_HasError()
T3284 000:920.867 JLINK_IsHalted()
T3284 000:921.551 - 0.682ms returns FALSE
T3284 000:921.569 JLINK_HasError()
T3284 000:922.870 JLINK_IsHalted()
T3284 000:923.414 - 0.543ms returns FALSE
T3284 000:923.435 JLINK_HasError()
T3284 000:924.967 JLINK_IsHalted()
T3284 000:925.691 - 0.722ms returns FALSE
T3284 000:925.718 JLINK_HasError()
T3284 000:926.907 JLINK_IsHalted()
T3284 000:927.591 - 0.683ms returns FALSE
T3284 000:927.615 JLINK_HasError()
T3284 000:928.843 JLINK_IsHalted()
T3284 000:929.502 - 0.658ms returns FALSE
T3284 000:929.536 JLINK_HasError()
T3284 000:931.552 JLINK_IsHalted()
T3284 000:932.274 - 0.720ms returns FALSE
T3284 000:932.300 JLINK_HasError()
T3284 000:933.581 JLINK_IsHalted()
T3284 000:934.229 - 0.648ms returns FALSE
T3284 000:934.256 JLINK_HasError()
T3284 000:935.537 JLINK_IsHalted()
T3284 000:936.255 - 0.717ms returns FALSE
T3284 000:936.279 JLINK_HasError()
T3284 000:937.615 JLINK_IsHalted()
T3284 000:938.319 - 0.703ms returns FALSE
T3284 000:938.343 JLINK_HasError()
T3284 000:939.757 JLINK_IsHalted()
T3284 000:940.359 - 0.600ms returns FALSE
T3284 000:940.405 JLINK_HasError()
T3284 000:941.878 JLINK_IsHalted()
T3284 000:942.669 - 0.789ms returns FALSE
T3284 000:942.719 JLINK_HasError()
T3284 000:944.859 JLINK_IsHalted()
T3284 000:945.580 - 0.718ms returns FALSE
T3284 000:945.626 JLINK_HasError()
T3284 000:949.934 JLINK_IsHalted()
T3284 000:950.708 - 0.773ms returns FALSE
T3284 000:950.728 JLINK_HasError()
T3284 000:952.056 JLINK_IsHalted()
T3284 000:952.737 - 0.680ms returns FALSE
T3284 000:952.755 JLINK_HasError()
T3284 000:953.923 JLINK_IsHalted()
T3284 000:954.575 - 0.652ms returns FALSE
T3284 000:954.594 JLINK_HasError()
T3284 000:956.115 JLINK_IsHalted()
T3284 000:956.737 - 0.621ms returns FALSE
T3284 000:956.758 JLINK_HasError()
T3284 000:958.698 JLINK_IsHalted()
T3284 000:959.499 - 0.800ms returns FALSE
T3284 000:959.544 JLINK_HasError()
T3284 000:960.716 JLINK_IsHalted()
T3284 000:961.719 - 1.002ms returns FALSE
T3284 000:961.750 JLINK_HasError()
T3284 000:963.649 JLINK_IsHalted()
T3284 000:964.313 - 0.663ms returns FALSE
T3284 000:964.341 JLINK_HasError()
T3284 000:965.779 JLINK_IsHalted()
T3284 000:966.472 - 0.692ms returns FALSE
T3284 000:966.498 JLINK_HasError()
T3284 000:967.810 JLINK_IsHalted()
T3284 000:968.453 - 0.642ms returns FALSE
T3284 000:968.487 JLINK_HasError()
T3284 000:970.528 JLINK_IsHalted()
T3284 000:971.260 - 0.730ms returns FALSE
T3284 000:971.300 JLINK_HasError()
T3284 000:972.553 JLINK_IsHalted()
T3284 000:973.145 - 0.591ms returns FALSE
T3284 000:973.176 JLINK_HasError()
T3284 000:974.506 JLINK_IsHalted()
T3284 000:975.194 - 0.687ms returns FALSE
T3284 000:975.221 JLINK_HasError()
T3284 000:976.917 JLINK_IsHalted()
T3284 000:977.648 - 0.729ms returns FALSE
T3284 000:977.674 JLINK_HasError()
T3284 000:978.912 JLINK_IsHalted()
T3284 000:979.461 - 0.548ms returns FALSE
T3284 000:979.485 JLINK_HasError()
T3284 000:981.264 JLINK_IsHalted()
T3284 000:982.084 - 0.819ms returns FALSE
T3284 000:982.129 JLINK_HasError()
T3284 000:984.220 JLINK_IsHalted()
T3284 000:984.918 - 0.696ms returns FALSE
T3284 000:984.942 JLINK_HasError()
T3284 000:986.256 JLINK_IsHalted()
T3284 000:986.947 - 0.690ms returns FALSE
T3284 000:986.972 JLINK_HasError()
T3284 000:988.853 JLINK_IsHalted()
T3284 000:989.508 - 0.654ms returns FALSE
T3284 000:989.537 JLINK_HasError()
T3284 000:990.842 JLINK_IsHalted()
T3284 000:991.631 - 0.787ms returns FALSE
T3284 000:991.664 JLINK_HasError()
T3284 000:993.323 JLINK_IsHalted()
T3284 000:993.871 - 0.548ms returns FALSE
T3284 000:993.904 JLINK_HasError()
T3284 000:995.259 JLINK_IsHalted()
T3284 000:996.038 - 0.778ms returns FALSE
T3284 000:996.080 JLINK_HasError()
T3284 000:997.442 JLINK_IsHalted()
T3284 000:998.137 - 0.695ms returns FALSE
T3284 000:998.155 JLINK_HasError()
T3284 000:999.996 JLINK_IsHalted()
T3284 001:000.641 - 0.644ms returns FALSE
T3284 001:000.660 JLINK_HasError()
T3284 001:002.163 JLINK_IsHalted()
T3284 001:002.855 - 0.691ms returns FALSE
T3284 001:002.874 JLINK_HasError()
T3284 001:004.101 JLINK_IsHalted()
T3284 001:004.755 - 0.653ms returns FALSE
T3284 001:004.773 JLINK_HasError()
T3284 001:006.066 JLINK_IsHalted()
T3284 001:006.563 - 0.496ms returns FALSE
T3284 001:006.582 JLINK_HasError()
T3284 001:008.254 JLINK_IsHalted()
T3284 001:008.985 - 0.731ms returns FALSE
T3284 001:009.012 JLINK_HasError()
T3284 001:012.910 JLINK_IsHalted()
T3284 001:013.705 - 0.793ms returns FALSE
T3284 001:013.747 JLINK_HasError()
T3284 001:015.894 JLINK_IsHalted()
T3284 001:016.632 - 0.738ms returns FALSE
T3284 001:016.657 JLINK_HasError()
T3284 001:017.873 JLINK_IsHalted()
T3284 001:018.550 - 0.676ms returns FALSE
T3284 001:018.575 JLINK_HasError()
T3284 001:019.994 JLINK_IsHalted()
T3284 001:020.770 - 0.774ms returns FALSE
T3284 001:020.812 JLINK_HasError()
T3284 001:022.050 JLINK_IsHalted()
T3284 001:022.751 - 0.700ms returns FALSE
T3284 001:022.775 JLINK_HasError()
T3284 001:023.884 JLINK_IsHalted()
T3284 001:024.707 - 0.821ms returns FALSE
T3284 001:024.749 JLINK_HasError()
T3284 001:026.052 JLINK_IsHalted()
T3284 001:026.824 - 0.769ms returns FALSE
T3284 001:026.866 JLINK_HasError()
T3284 001:028.047 JLINK_IsHalted()
T3284 001:028.744 - 0.696ms returns FALSE
T3284 001:028.762 JLINK_HasError()
T3284 001:030.667 JLINK_IsHalted()
T3284 001:031.395 - 0.728ms returns FALSE
T3284 001:031.414 JLINK_HasError()
T3284 001:032.589 JLINK_IsHalted()
T3284 001:033.213 - 0.623ms returns FALSE
T3284 001:033.231 JLINK_HasError()
T3284 001:034.587 JLINK_IsHalted()
T3284 001:035.240 - 0.654ms returns FALSE
T3284 001:035.259 JLINK_HasError()
T3284 001:036.670 JLINK_IsHalted()
T3284 001:037.396 - 0.726ms returns FALSE
T3284 001:037.416 JLINK_HasError()
T3284 001:038.590 JLINK_IsHalted()
T3284 001:039.037 - 0.446ms returns FALSE
T3284 001:039.054 JLINK_HasError()
T3284 001:041.268 JLINK_IsHalted()
T3284 001:044.967   CPU_ReadMem(2 bytes @ 0x20000000)
T3284 001:045.701 - 4.433ms returns TRUE
T3284 001:045.731 JLINK_ReadReg(R15 (PC))
T3284 001:045.742 - 0.011ms returns 0x20000000
T3284 001:045.750 JLINK_ClrBPEx(BPHandle = 0x00000003)
T3284 001:045.757 - 0.007ms returns 0x00
T3284 001:045.764 JLINK_ReadReg(R0)
T3284 001:045.771 - 0.006ms returns 0x00000000
T3284 001:046.508 JLINK_HasError()
T3284 001:046.523 JLINK_WriteReg(R0, 0x08004000)
T3284 001:046.531 - 0.008ms returns 0
T3284 001:046.538 JLINK_WriteReg(R1, 0x00004000)
T3284 001:046.545 - 0.006ms returns 0
T3284 001:046.552 JLINK_WriteReg(R2, 0x000000FF)
T3284 001:046.558 - 0.006ms returns 0
T3284 001:046.565 JLINK_WriteReg(R3, 0x00000000)
T3284 001:046.571 - 0.006ms returns 0
T3284 001:046.578 JLINK_WriteReg(R4, 0x00000000)
T3284 001:046.584 - 0.006ms returns 0
T3284 001:046.591 JLINK_WriteReg(R5, 0x00000000)
T3284 001:046.598 - 0.006ms returns 0
T3284 001:046.605 JLINK_WriteReg(R6, 0x00000000)
T3284 001:046.611 - 0.006ms returns 0
T3284 001:046.618 JLINK_WriteReg(R7, 0x00000000)
T3284 001:046.624 - 0.006ms returns 0
T3284 001:046.631 JLINK_WriteReg(R8, 0x00000000)
T3284 001:046.637 - 0.006ms returns 0
T3284 001:046.644 JLINK_WriteReg(R9, 0x20000184)
T3284 001:046.651 - 0.006ms returns 0
T3284 001:046.658 JLINK_WriteReg(R10, 0x00000000)
T3284 001:046.664 - 0.006ms returns 0
T3284 001:046.671 JLINK_WriteReg(R11, 0x00000000)
T3284 001:046.677 - 0.006ms returns 0
T3284 001:046.684 JLINK_WriteReg(R12, 0x00000000)
T3284 001:046.691 - 0.006ms returns 0
T3284 001:046.752 JLINK_WriteReg(R13 (SP), 0x20001000)
T3284 001:046.762 - 0.010ms returns 0
T3284 001:046.769 JLINK_WriteReg(R14, 0x20000001)
T3284 001:046.776 - 0.006ms returns 0
T3284 001:046.783 JLINK_WriteReg(R15 (PC), 0x20000020)
T3284 001:046.789 - 0.006ms returns 0
T3284 001:046.796 JLINK_WriteReg(XPSR, 0x01000000)
T3284 001:046.802 - 0.006ms returns 0
T3284 001:046.809 JLINK_WriteReg(MSP, 0x20001000)
T3284 001:046.816 - 0.006ms returns 0
T3284 001:046.823 JLINK_WriteReg(PSP, 0x20001000)
T3284 001:046.829 - 0.006ms returns 0
T3284 001:046.836 JLINK_WriteReg(CFBP, 0x00000000)
T3284 001:046.842 - 0.006ms returns 0
T3284 001:046.850 JLINK_SetBPEx(Addr = 0x20000000, Type = 0xFFFFFFF2)
T3284 001:046.857 - 0.007ms returns 0x00000004
T3284 001:046.864 JLINK_Go()
T3284 001:046.882   CPU_ReadMem(4 bytes @ 0xE0001000)
T3284 001:051.293 - 4.427ms 
T3284 001:051.330 JLINK_IsHalted()
T3284 001:054.798   CPU_ReadMem(2 bytes @ 0x20000000)
T3284 001:055.471 - 4.139ms returns TRUE
T3284 001:055.492 JLINK_ReadReg(R15 (PC))
T3284 001:055.504 - 0.011ms returns 0x20000000
T3284 001:055.512 JLINK_ClrBPEx(BPHandle = 0x00000004)
T3284 001:055.520 - 0.008ms returns 0x00
T3284 001:055.531 JLINK_ReadReg(R0)
T3284 001:055.539 - 0.008ms returns 0x00000001
T3284 001:055.551 JLINK_HasError()
T3284 001:055.563 JLINK_WriteReg(R0, 0x08004000)
T3284 001:055.571 - 0.008ms returns 0
T3284 001:055.579 JLINK_WriteReg(R1, 0x00004000)
T3284 001:055.585 - 0.006ms returns 0
T3284 001:055.595 JLINK_WriteReg(R2, 0x000000FF)
T3284 001:055.626 - 0.030ms returns 0
T3284 001:055.635 JLINK_WriteReg(R3, 0x00000000)
T3284 001:055.644 - 0.009ms returns 0
T3284 001:055.654 JLINK_WriteReg(R4, 0x00000000)
T3284 001:055.662 - 0.008ms returns 0
T3284 001:055.671 JLINK_WriteReg(R5, 0x00000000)
T3284 001:055.680 - 0.008ms returns 0
T3284 001:055.690 JLINK_WriteReg(R6, 0x00000000)
T3284 001:055.699 - 0.009ms returns 0
T3284 001:055.709 JLINK_WriteReg(R7, 0x00000000)
T3284 001:055.718 - 0.008ms returns 0
T3284 001:055.728 JLINK_WriteReg(R8, 0x00000000)
T3284 001:055.737 - 0.009ms returns 0
T3284 001:055.748 JLINK_WriteReg(R9, 0x20000184)
T3284 001:055.756 - 0.008ms returns 0
T3284 001:055.766 JLINK_WriteReg(R10, 0x00000000)
T3284 001:055.775 - 0.009ms returns 0
T3284 001:055.784 JLINK_WriteReg(R11, 0x00000000)
T3284 001:055.793 - 0.008ms returns 0
T3284 001:055.803 JLINK_WriteReg(R12, 0x00000000)
T3284 001:055.812 - 0.009ms returns 0
T3284 001:055.821 JLINK_WriteReg(R13 (SP), 0x20001000)
T3284 001:055.830 - 0.008ms returns 0
T3284 001:055.840 JLINK_WriteReg(R14, 0x20000001)
T3284 001:055.849 - 0.009ms returns 0
T3284 001:055.859 JLINK_WriteReg(R15 (PC), 0x200000C6)
T3284 001:055.868 - 0.009ms returns 0
T3284 001:055.878 JLINK_WriteReg(XPSR, 0x01000000)
T3284 001:055.887 - 0.009ms returns 0
T3284 001:055.898 JLINK_WriteReg(MSP, 0x20001000)
T3284 001:055.907 - 0.009ms returns 0
T3284 001:055.917 JLINK_WriteReg(PSP, 0x20001000)
T3284 001:055.927 - 0.009ms returns 0
T3284 001:055.937 JLINK_WriteReg(CFBP, 0x00000000)
T3284 001:055.946 - 0.009ms returns 0
T3284 001:055.957 JLINK_SetBPEx(Addr = 0x20000000, Type = 0xFFFFFFF2)
T3284 001:055.968 - 0.011ms returns 0x00000005
T3284 001:055.978 JLINK_Go()
T3284 001:056.001   CPU_ReadMem(4 bytes @ 0xE0001000)
T3284 001:060.040 - 4.060ms 
T3284 001:060.077 JLINK_IsHalted()
T3284 001:060.721 - 0.642ms returns FALSE
T3284 001:060.740 JLINK_HasError()
T3284 001:061.997 JLINK_IsHalted()
T3284 001:062.597 - 0.599ms returns FALSE
T3284 001:062.616 JLINK_HasError()
T3284 001:063.833 JLINK_IsHalted()
T3284 001:064.429 - 0.595ms returns FALSE
T3284 001:064.447 JLINK_HasError()
T3284 001:065.910 JLINK_IsHalted()
T3284 001:066.472 - 0.561ms returns FALSE
T3284 001:066.490 JLINK_HasError()
T3284 001:068.016 JLINK_IsHalted()
T3284 001:068.617 - 0.600ms returns FALSE
T3284 001:068.636 JLINK_HasError()
T3284 001:070.704 JLINK_IsHalted()
T3284 001:071.198 - 0.493ms returns FALSE
T3284 001:071.227 JLINK_HasError()
T3284 001:073.216 JLINK_IsHalted()
T3284 001:075.064 - 1.839ms returns FALSE
T3284 001:075.834 JLINK_HasError()
T3284 001:079.369 JLINK_IsHalted()
T3284 001:081.087 - 1.713ms returns FALSE
T3284 001:081.458 JLINK_HasError()
T3284 001:083.747 JLINK_IsHalted()
T3284 001:085.357 - 1.605ms returns FALSE
T3284 001:085.596 JLINK_HasError()
T3284 001:087.583 JLINK_IsHalted()
T3284 001:090.146 - 2.557ms returns FALSE
T3284 001:090.370 JLINK_HasError()
T3284 001:093.082 JLINK_IsHalted()
T3284 001:093.593 - 0.510ms returns FALSE
T3284 001:093.619 JLINK_HasError()
T3284 001:095.164 JLINK_IsHalted()
T3284 001:095.677 - 0.512ms returns FALSE
T3284 001:095.700 JLINK_HasError()
T3284 001:097.171 JLINK_IsHalted()
T3284 001:097.671 - 0.500ms returns FALSE
T3284 001:097.691 JLINK_HasError()
T3284 001:099.681 JLINK_IsHalted()
T3284 001:100.182 - 0.500ms returns FALSE
T3284 001:100.202 JLINK_HasError()
T3284 001:101.764 JLINK_IsHalted()
T3284 001:102.292 - 0.528ms returns FALSE
T3284 001:102.310 JLINK_HasError()
T3284 001:103.724 JLINK_IsHalted()
T3284 001:104.390 - 0.666ms returns FALSE
T3284 001:104.409 JLINK_HasError()
T3284 001:105.870 JLINK_IsHalted()
T3284 001:106.475 - 0.604ms returns FALSE
T3284 001:106.494 JLINK_HasError()
T3284 001:107.772 JLINK_IsHalted()
T3284 001:108.414 - 0.641ms returns FALSE
T3284 001:108.432 JLINK_HasError()
T3284 001:109.910 JLINK_IsHalted()
T3284 001:110.532 - 0.621ms returns FALSE
T3284 001:110.550 JLINK_HasError()
T3284 001:112.054 JLINK_IsHalted()
T3284 001:112.715 - 0.660ms returns FALSE
T3284 001:112.733 JLINK_HasError()
T3284 001:113.918 JLINK_IsHalted()
T3284 001:114.496 - 0.578ms returns FALSE
T3284 001:114.514 JLINK_HasError()
T3284 001:116.059 JLINK_IsHalted()
T3284 001:116.744 - 0.685ms returns FALSE
T3284 001:116.762 JLINK_HasError()
T3284 001:118.550 JLINK_IsHalted()
T3284 001:119.054 - 0.501ms returns FALSE
T3284 001:119.095 JLINK_HasError()
T3284 001:123.543 JLINK_IsHalted()
T3284 001:124.157 - 0.613ms returns FALSE
T3284 001:124.192 JLINK_HasError()
T3284 001:125.743 JLINK_IsHalted()
T3284 001:126.538 - 0.794ms returns FALSE
T3284 001:126.566 JLINK_HasError()
T3284 001:128.781 JLINK_IsHalted()
T3284 001:129.511 - 0.728ms returns FALSE
T3284 001:129.538 JLINK_HasError()
T3284 001:131.263 JLINK_IsHalted()
T3284 001:132.028 - 0.764ms returns FALSE
T3284 001:132.054 JLINK_HasError()
T3284 001:133.215 JLINK_IsHalted()
T3284 001:133.887 - 0.671ms returns FALSE
T3284 001:133.916 JLINK_HasError()
T3284 001:135.223 JLINK_IsHalted()
T3284 001:135.924 - 0.700ms returns FALSE
T3284 001:135.951 JLINK_HasError()
T3284 001:137.172 JLINK_IsHalted()
T3284 001:137.843 - 0.670ms returns FALSE
T3284 001:137.868 JLINK_HasError()
T3284 001:139.898 JLINK_IsHalted()
T3284 001:140.473 - 0.574ms returns FALSE
T3284 001:140.519 JLINK_HasError()
T3284 001:141.912 JLINK_IsHalted()
T3284 001:142.704 - 0.791ms returns FALSE
T3284 001:142.746 JLINK_HasError()
T3284 001:144.892 JLINK_IsHalted()
T3284 001:145.607 - 0.713ms returns FALSE
T3284 001:145.632 JLINK_HasError()
T3284 001:146.857 JLINK_IsHalted()
T3284 001:147.544 - 0.686ms returns FALSE
T3284 001:147.568 JLINK_HasError()
T3284 001:148.871 JLINK_IsHalted()
T3284 001:149.477 - 0.604ms returns FALSE
T3284 001:149.502 JLINK_HasError()
T3284 001:150.837 JLINK_IsHalted()
T3284 001:151.388 - 0.551ms returns FALSE
T3284 001:151.407 JLINK_HasError()
T3284 001:153.026 JLINK_IsHalted()
T3284 001:153.587 - 0.560ms returns FALSE
T3284 001:153.606 JLINK_HasError()
T3284 001:155.113 JLINK_IsHalted()
T3284 001:155.926 - 0.812ms returns FALSE
T3284 001:155.968 JLINK_HasError()
T3284 001:158.729 JLINK_IsHalted()
T3284 001:159.508 - 0.777ms returns FALSE
T3284 001:159.552 JLINK_HasError()
T3284 001:160.810 JLINK_IsHalted()
T3284 001:161.526 - 0.714ms returns FALSE
T3284 001:161.551 JLINK_HasError()
T3284 001:162.814 JLINK_IsHalted()
T3284 001:163.580 - 0.765ms returns FALSE
T3284 001:163.608 JLINK_HasError()
T3284 001:164.825 JLINK_IsHalted()
T3284 001:165.488 - 0.662ms returns FALSE
T3284 001:165.512 JLINK_HasError()
T3284 001:166.840 JLINK_IsHalted()
T3284 001:167.562 - 0.721ms returns FALSE
T3284 001:167.590 JLINK_HasError()
T3284 001:168.786 JLINK_IsHalted()
T3284 001:169.469 - 0.682ms returns FALSE
T3284 001:169.494 JLINK_HasError()
T3284 001:171.061 JLINK_IsHalted()
T3284 001:171.764 - 0.701ms returns FALSE
T3284 001:171.788 JLINK_HasError()
T3284 001:173.137 JLINK_IsHalted()
T3284 001:173.679 - 0.540ms returns FALSE
T3284 001:173.720 JLINK_HasError()
T3284 001:175.920 JLINK_IsHalted()
T3284 001:176.671 - 0.750ms returns FALSE
T3284 001:176.699 JLINK_HasError()
T3284 001:177.883 JLINK_IsHalted()
T3284 001:178.551 - 0.667ms returns FALSE
T3284 001:178.575 JLINK_HasError()
T3284 001:180.448 JLINK_IsHalted()
T3284 001:181.147 - 0.698ms returns FALSE
T3284 001:181.174 JLINK_HasError()
T3284 001:182.388 JLINK_IsHalted()
T3284 001:183.142 - 0.753ms returns FALSE
T3284 001:183.184 JLINK_HasError()
T3284 001:184.435 JLINK_IsHalted()
T3284 001:185.122 - 0.687ms returns FALSE
T3284 001:185.149 JLINK_HasError()
T3284 001:186.396 JLINK_IsHalted()
T3284 001:187.191 - 0.794ms returns FALSE
T3284 001:187.215 JLINK_HasError()
T3284 001:189.067 JLINK_IsHalted()
T3284 001:189.717 - 0.648ms returns FALSE
T3284 001:189.761 JLINK_HasError()
T3284 001:191.206 JLINK_IsHalted()
T3284 001:191.919 - 0.712ms returns FALSE
T3284 001:191.944 JLINK_HasError()
T3284 001:193.165 JLINK_IsHalted()
T3284 001:193.741 - 0.575ms returns FALSE
T3284 001:193.771 JLINK_HasError()
T3284 001:195.221 JLINK_IsHalted()
T3284 001:196.016 - 0.793ms returns FALSE
T3284 001:196.058 JLINK_HasError()
T3284 001:197.805 JLINK_IsHalted()
T3284 001:198.597 - 0.790ms returns FALSE
T3284 001:198.639 JLINK_HasError()
T3284 001:199.918 JLINK_IsHalted()
T3284 001:200.576 - 0.656ms returns FALSE
T3284 001:200.609 JLINK_HasError()
T3284 001:201.992 JLINK_IsHalted()
T3284 001:202.693 - 0.700ms returns FALSE
T3284 001:202.717 JLINK_HasError()
T3284 001:203.908 JLINK_IsHalted()
T3284 001:204.531 - 0.622ms returns FALSE
T3284 001:204.555 JLINK_HasError()
T3284 001:205.936 JLINK_IsHalted()
T3284 001:206.515 - 0.578ms returns FALSE
T3284 001:206.549 JLINK_HasError()
T3284 001:208.042 JLINK_IsHalted()
T3284 001:208.777 - 0.734ms returns FALSE
T3284 001:208.805 JLINK_HasError()
T3284 001:210.594 JLINK_IsHalted()
T3284 001:211.294 - 0.699ms returns FALSE
T3284 001:211.320 JLINK_HasError()
T3284 001:212.649 JLINK_IsHalted()
T3284 001:213.422 - 0.771ms returns FALSE
T3284 001:213.456 JLINK_HasError()
T3284 001:214.649 JLINK_IsHalted()
T3284 001:215.402 - 0.751ms returns FALSE
T3284 001:215.427 JLINK_HasError()
T3284 001:216.629 JLINK_IsHalted()
T3284 001:217.292 - 0.662ms returns FALSE
T3284 001:217.316 JLINK_HasError()
T3284 001:218.640 JLINK_IsHalted()
T3284 001:219.392 - 0.751ms returns FALSE
T3284 001:219.438 JLINK_HasError()
T3284 001:220.962 JLINK_IsHalted()
T3284 001:221.691 - 0.728ms returns FALSE
T3284 001:221.717 JLINK_HasError()
T3284 001:222.863 JLINK_IsHalted()
T3284 001:223.529 - 0.663ms returns FALSE
T3284 001:223.660 JLINK_HasError()
T3284 001:224.932 JLINK_IsHalted()
T3284 001:225.622 - 0.689ms returns FALSE
T3284 001:225.647 JLINK_HasError()
T3284 001:226.944 JLINK_IsHalted()
T3284 001:227.625 - 0.680ms returns FALSE
T3284 001:227.650 JLINK_HasError()
T3284 001:229.489 JLINK_IsHalted()
T3284 001:230.166 - 0.675ms returns FALSE
T3284 001:230.200 JLINK_HasError()
T3284 001:234.662 JLINK_IsHalted()
T3284 001:235.401 - 0.738ms returns FALSE
T3284 001:235.428 JLINK_HasError()
T3284 001:236.697 JLINK_IsHalted()
T3284 001:237.404 - 0.705ms returns FALSE
T3284 001:237.429 JLINK_HasError()
T3284 001:238.690 JLINK_IsHalted()
T3284 001:239.454 - 0.763ms returns FALSE
T3284 001:239.479 JLINK_HasError()
T3284 001:241.048 JLINK_IsHalted()
T3284 001:241.766 - 0.717ms returns FALSE
T3284 001:241.826 JLINK_HasError()
T3284 001:242.996 JLINK_IsHalted()
T3284 001:243.658 - 0.660ms returns FALSE
T3284 001:243.683 JLINK_HasError()
T3284 001:245.020 JLINK_IsHalted()
T3284 001:245.731 - 0.709ms returns FALSE
T3284 001:245.812 JLINK_HasError()
T3284 001:248.545 JLINK_IsHalted()
T3284 001:249.248 - 0.701ms returns FALSE
T3284 001:249.274 JLINK_HasError()
T3284 001:250.716 JLINK_IsHalted()
T3284 001:251.428 - 0.711ms returns FALSE
T3284 001:251.454 JLINK_HasError()
T3284 001:252.706 JLINK_IsHalted()
T3284 001:253.399 - 0.692ms returns FALSE
T3284 001:253.424 JLINK_HasError()
T3284 001:254.661 JLINK_IsHalted()
T3284 001:255.391 - 0.728ms returns FALSE
T3284 001:255.418 JLINK_HasError()
T3284 001:256.560 JLINK_IsHalted()
T3284 001:257.144 - 0.583ms returns FALSE
T3284 001:257.183 JLINK_HasError()
T3284 001:258.719 JLINK_IsHalted()
T3284 001:259.424 - 0.704ms returns FALSE
T3284 001:259.452 JLINK_HasError()
T3284 001:261.137 JLINK_IsHalted()
T3284 001:261.859 - 0.721ms returns FALSE
T3284 001:261.887 JLINK_HasError()
T3284 001:263.158 JLINK_IsHalted()
T3284 001:263.740 - 0.581ms returns FALSE
T3284 001:263.766 JLINK_HasError()
T3284 001:265.029 JLINK_IsHalted()
T3284 001:265.675 - 0.646ms returns FALSE
T3284 001:265.699 JLINK_HasError()
T3284 001:267.079 JLINK_IsHalted()
T3284 001:267.720 - 0.641ms returns FALSE
T3284 001:267.745 JLINK_HasError()
T3284 001:269.937 JLINK_IsHalted()
T3284 001:270.524 - 0.584ms returns FALSE
T3284 001:270.571 JLINK_HasError()
T3284 001:271.979 JLINK_IsHalted()
T3284 001:272.789 - 0.808ms returns FALSE
T3284 001:272.833 JLINK_HasError()
T3284 001:274.880 JLINK_IsHalted()
T3284 001:275.576 - 0.696ms returns FALSE
T3284 001:275.611 JLINK_HasError()
T3284 001:277.262 JLINK_IsHalted()
T3284 001:278.395 - 1.132ms returns FALSE
T3284 001:278.422 JLINK_HasError()
T3284 001:279.660 JLINK_IsHalted()
T3284 001:280.220 - 0.558ms returns FALSE
T3284 001:280.270 JLINK_HasError()
T3284 001:281.861 JLINK_IsHalted()
T3284 001:282.595 - 0.734ms returns FALSE
T3284 001:282.621 JLINK_HasError()
T3284 001:283.863 JLINK_IsHalted()
T3284 001:284.546 - 0.682ms returns FALSE
T3284 001:284.572 JLINK_HasError()
